 ****** HSPICE -- G-2012.06-SP1 32-BIT (Aug 27 2012) win32 ******               
  Copyright (C) 2012 Synopsys, Inc. All Rights Reserved.                        
  Unpublished-rights reserved under US copyright laws.
  This program is protected by law and is subject to the
  terms and conditions of the license agreement from Synopsys.
  Use of this program is your acceptance to be bound by the
  license agreement. HSPICE is the trademark of Synopsys, Inc.
  Input File: invdc_l2.sp                                                       
  Command line options: -i invdc_l2.sp -o invdc_l2.lis
  lic:  
  lic: FLEXlm: v10.9.8 
  lic: USER:   hmr                  HOSTNAME: BF-201911211153 
  lic: HOSTID: "70c94e3215e4 0c9d922ee649 00ffaabbccdd 005056c00001 005056c00008
  70c94e31fa78 12c94e3
  lic: Using FLEXlm license file: 
  lic: D:\synopsys\Hspice_G-2012.06-SP1\license.dat 
  lic: Checkout 1 hspice 
  lic: License/Maintenance for hspice will expire on 31-dec-2019/2019.12 
  lic: NODE LOCKED license on hostid "70c94e3215e4 0c9d922ee649 00ffaabbccdd 005
 056c00001 005056c0000
  lic:   
 Init: read install configuration file: d:\synopsys\Hspice_G-2012.06-SP1\meta.cfg
  **warning** (invdc_l2.sp:7) ucirt    is not level=   2 model parameter. Parameter has been ignored.
1****** HSPICE -- G-2012.06-SP1 32-BIT (Aug 27 2012) win32 ******               
 ******  
 *inv dc analysis

  ******  mos   model parameters tnom=  25.000 temp=  25.000 *****
 ***************************************************************************
 *** common model parameters  model name:   0:nmos     model type:nmos   ***
 ***************************************************************************
     names  values   units     names  values   units     names  values   units
     -----  ------   -----     -----  ------   -----     -----  ------   -----

   1*** geometry parameters ***
       ld= 150.00n meters      lmlt=   1.00                wd=   0.    meters 
     wmlt=   1.00                xl=   0.    meters        xw=   0.    meters 
     lref=   0.    meters      wref=   0.    meters      lref=   0.    meters 
     wref=   0.    meters     xlref=   0.    meters     xwref=   0.    meters 
     lmin=   0.    meters      wmin=   0.    meters      lmax=   0.    meters 
     wmax=   0.    meters 

   2*** threshold voltage parameters ***
      vto= 740.00m volts        nss= 100.00g 1/cm**2      tpg=   1.00         
      phi= 600.00m volts      gamma= 540.00m v**0.5      bulk=  gnd           
    ngate=   0.    cm**3       nsub= 5.3e+15 1/cm**3   delvto=   0.    volts  

   3*** gate overlap capacitance parameters ***
     cgbo=   0.    f/meter     cgdo= 430.00p f/meter     cgso= 430.00p f/meter
     meto=   0.    meters 

   4*** gate capacitance parameters ***
    capop=   2.00               cf1=   0.    volts        cf2= 100.00m volts  
      cf3=   1.00  volts        cf4=  50.00               cf5= 666.67m        
      cf6= 500.00               xqc= 500.00m              tox=  20.00n meters 
      cox=   1.73m f/m**2 

   5*** diffusion parasitic parameters ***
      acm=   0.                  is=  10.00f amps          js=   0.    a/m**2 
      jsw=   0.    amp/m        nds=   1.00               cbd=   0.    farad  
      cbs=   0.    farad         cj= 300.00u f/m**2      cjsw= 800.00p f/m    
   cjgate= 800.00p f/m           mj= 660.00m             mjsw= 240.00m        
       pb= 580.00m volts        php= 580.00m volts         tt=   0.    secs   
     hdif=   0.    meters      ldif=   0.    meters        rd=   0.    ohms   
       rs=   0.    ohms         rsh=  70.00  ohms/sq       fc=   0.           
    alpha=   0.                 vcr=   0.    volts      iirat=   0.           
      rdc=   0.    ohms         rsc=   0.    ohms           n=   1.00         
     vnds=  -1.00  volts  

   6*** temperature effect parameters ***
     tlev=   0.               tlevc=   0.                  eg=   1.11  ev     
     gap1= 702.00u ev/deg      gap2=   1.11k deg          xti=   0.           
      bex=  -1.50               tcv=   0.    v/deg k      trd=   0.    /deg   
      trs=   0.    /deg         cta=   0.    /deg         ctp=   0.    /deg   

   7*** noise parameters ***
       kf=   0.                  af=   1.00              nlev=   2.00         
   gdsnoi=   1.00         

   ***  level  2  model parameters  ***

    delta=   2.34             ecrit=   0.    v/m       lambda=  37.00m /v     
      nfs= 1.0e+12 1/cm**2    ucrit=  10.00k v/cm        uexp= 157.00m        
     utra=   0.                  uo= 656.00 cm**2/vs       xj= 250.00n meters 
     neff=   1.00              vmax=  55.26k  m/sec        kp=  80.00u a/v**2 
      mob=-1.2e-29            deriv=   0.           
 ***************************************************************************
 *** common model parameters  model name:   0:pmos     model type:pmos   ***
 ***************************************************************************
     names  values   units     names  values   units     names  values   units
     -----  ------   -----     -----  ------   -----     -----  ------   -----

   1*** geometry parameters ***
       ld= 150.00n meters      lmlt=   1.00                wd=   0.    meters 
     wmlt=   1.00                xl=   0.    meters        xw=   0.    meters 
     lref=   0.    meters      wref=   0.    meters      lref=   0.    meters 
     wref=   0.    meters     xlref=   0.    meters     xwref=   0.    meters 
     lmin=   0.    meters      wmin=   0.    meters      lmax=   0.    meters 
     wmax=   0.    meters 

   2*** threshold voltage parameters ***
      vto=-740.00m volts        nss= 100.00g 1/cm**2      tpg=  -1.00         
      phi= 600.00m volts      gamma= 580.00m v**0.5      bulk=  gnd           
    ngate=   0.    cm**3       nsub= 4.3e+15 1/cm**3   delvto=   0.    volts  

   3*** gate overlap capacitance parameters ***
     cgbo=   0.    f/meter     cgdo= 430.00p f/meter     cgso= 430.00p f/meter
     meto=   0.    meters 

   4*** gate capacitance parameters ***
    capop=   2.00               cf1=   0.    volts        cf2= 100.00m volts  
      cf3=   1.00  volts        cf4=  50.00               cf5= 666.67m        
      cf6= 500.00               xqc= 500.00m              tox=  20.00n meters 
      cox=   1.73m f/m**2 

   5*** diffusion parasitic parameters ***
      acm=   0.                  is=  10.00f amps          js=   0.    a/m**2 
      jsw=   0.    amp/m        nds=   1.00               cbd=   0.    farad  
      cbs=   0.    farad         cj= 500.00u f/m**2      cjsw= 135.00p f/m    
   cjgate= 135.00p f/m           mj= 510.00m             mjsw= 240.00m        
       pb= 640.00m volts        php= 640.00m volts         tt=   0.    secs   
     hdif=   0.    meters      ldif=   0.    meters        rd=   0.    ohms   
       rs=   0.    ohms         rsh= 121.00  ohms/sq       fc=   0.           
    alpha=   0.                 vcr=   0.    volts      iirat=   0.           
      rdc=   0.    ohms         rsc=   0.    ohms           n=   1.00         
     vnds=  -1.00  volts  

   6*** temperature effect parameters ***
     tlev=   0.               tlevc=   0.                  eg=   1.11  ev     
     gap1= 702.00u ev/deg      gap2=   1.11k deg          xti=   0.           
      bex=  -1.50               tcv=   0.    v/deg k      trd=   0.    /deg   
      trs=   0.    /deg         cta=   0.    /deg         ctp=   0.    /deg   

   7*** noise parameters ***
       kf=   0.                  af=   1.00              nlev=   2.00         
   gdsnoi=   1.00         

   ***  level  2  model parameters  ***

    delta=   1.79             ecrit=   0.    v/m       lambda=  61.00m /v     
      nfs= 1.0e+12 1/cm**2    ucrit=  10.00k v/cm        uexp= 324.00m        
     utra=   0.                  uo= 262.00 cm**2/vs       xj= 250.00n meters 
     neff=   1.00              vmax=  25.69k  m/sec        kp=  27.00u a/v**2 
      mob=-1.2e-29            deriv=   0.           
  
      
 *****************************************************************
 ******  option summary
 ******
 runlvl  = 3         bypass  = 2         
 ******  
 *inv dc analysis

  ******  dc transfer curves tnom=  25.000 temp=  25.000 *****
x

        volt    voltage      voltage    
                    vi           vo     
    0.            0.           2.0000   
  1.0000e-02    1.000e-02      2.0000   
  2.0000e-02    2.000e-02      2.0000   
  3.0000e-02    3.000e-02      2.0000   
  4.0000e-02    4.000e-02      2.0000   
  5.0000e-02    5.000e-02      2.0000   
  6.0000e-02    6.000e-02      2.0000   
  7.0000e-02    7.000e-02      2.0000   
  8.0000e-02    8.000e-02      2.0000   
  9.0000e-02    9.000e-02      2.0000   
    0.10000       0.1000       2.0000   
    0.11000       0.1100       2.0000   
    0.12000       0.1200       2.0000   
    0.13000       0.1300       2.0000   
    0.14000       0.1400       2.0000   
    0.15000       0.1500       2.0000   
    0.16000       0.1600       2.0000   
    0.17000       0.1700       2.0000   
    0.18000       0.1800       2.0000   
    0.19000       0.1900       2.0000   
    0.20000       0.2000       2.0000   
    0.21000       0.2100       2.0000   
    0.22000       0.2200       2.0000   
    0.23000       0.2300       2.0000   
    0.24000       0.2400       2.0000   
    0.25000       0.2500       2.0000   
    0.26000       0.2600       2.0000   
    0.27000       0.2700       2.0000   
    0.28000       0.2800       2.0000   
    0.29000       0.2900       2.0000   
    0.30000       0.3000       2.0000   
    0.31000       0.3100       2.0000   
    0.32000       0.3200       2.0000   
    0.33000       0.3300       2.0000   
    0.34000       0.3400       2.0000   
    0.35000       0.3500       2.0000   
    0.36000       0.3600       2.0000   
    0.37000       0.3700       2.0000   
    0.38000       0.3800       2.0000   
    0.39000       0.3900       2.0000   
    0.40000       0.4000       2.0000   
    0.41000       0.4100       2.0000   
    0.42000       0.4200       2.0000   
    0.43000       0.4300       2.0000   
    0.44000       0.4400       2.0000   
    0.45000       0.4500       2.0000   
    0.46000       0.4600       2.0000   
    0.47000       0.4700       1.9999   
    0.48000       0.4800       1.9999   
    0.49000       0.4900       1.9999   
    0.50000       0.5000       1.9999   
    0.51000       0.5100       1.9999   
    0.52000       0.5200       1.9999   
    0.53000       0.5300       1.9998   
    0.54000       0.5400       1.9998   
    0.55000       0.5500       1.9998   
    0.56000       0.5600       1.9997   
    0.57000       0.5700       1.9996   
    0.58000       0.5800       1.9996   
    0.59000       0.5900       1.9995   
    0.60000       0.6000       1.9994   
    0.61000       0.6100       1.9993   
    0.62000       0.6200       1.9991   
    0.63000       0.6300       1.9989   
    0.64000       0.6400       1.9987   
    0.65000       0.6500       1.9985   
    0.66000       0.6600       1.9982   
    0.67000       0.6700       1.9978   
    0.68000       0.6800       1.9973   
    0.69000       0.6900       1.9968   
    0.70000       0.7000       1.9961   
    0.71000       0.7100       1.9954   
    0.72000       0.7200       1.9944   
    0.73000       0.7300       1.9933   
    0.74000       0.7400       1.9919   
    0.75000       0.7500       1.9902   
    0.76000       0.7600       1.9882   
    0.77000       0.7700       1.9858   
    0.78000       0.7800       1.9813   
    0.79000       0.7900       1.9743   
    0.80000       0.8000       1.9659   
    0.81000       0.8100       1.9559   
    0.82000       0.8200       1.9442   
    0.83000       0.8300       1.9303   
    0.84000       0.8400       1.9150   
    0.85000       0.8500       1.8982   
    0.86000       0.8600       1.8779   
    0.87000       0.8700       1.8526   
    0.88000       0.8800       1.8185   
    0.89000       0.8900       1.7605   
    0.90000       0.9000       1.0489   
    0.91000       0.9100       0.1559   
    0.92000       0.9200     9.788e-02  
    0.93000       0.9300     8.217e-02  
    0.94000       0.9400     7.137e-02  
    0.95000       0.9500     6.303e-02  
    0.96000       0.9600     5.623e-02  
    0.97000       0.9700     5.048e-02  
    0.98000       0.9800     4.553e-02  
    0.99000       0.9900     4.118e-02  
    1.00000       1.0000     3.733e-02  
    1.01000       1.0100     3.388e-02  
    1.02000       1.0200     3.077e-02  
    1.03000       1.0300     2.795e-02  
    1.04000       1.0400     2.539e-02  
    1.05000       1.0500     2.304e-02  
    1.06000       1.0600     2.089e-02  
    1.07000       1.0700     1.892e-02  
    1.08000       1.0800     1.710e-02  
    1.09000       1.0900     1.543e-02  
    1.10000       1.1000     1.388e-02  
    1.11000       1.1100     1.246e-02  
    1.12000       1.1200     1.114e-02  
    1.13000       1.1300     9.932e-03  
    1.14000       1.1400     8.817e-03  
    1.15000       1.1500     7.792e-03  
    1.16000       1.1600     6.854e-03  
    1.17000       1.1700     5.969e-03  
    1.18000       1.1800     4.896e-03  
    1.19000       1.1900     3.949e-03  
    1.20000       1.2000     3.120e-03  
    1.21000       1.2100     2.403e-03  
    1.22000       1.2200     1.790e-03  
    1.23000       1.2300     1.296e-03  
    1.24000       1.2400     1.074e-03  
    1.25000       1.2500     8.908e-04  
    1.26000       1.2600     7.389e-04  
    1.27000       1.2700     6.130e-04  
    1.28000       1.2800     5.088e-04  
    1.29000       1.2900     4.224e-04  
    1.30000       1.3000     3.507e-04  
    1.31000       1.3100     2.913e-04  
    1.32000       1.3200     2.420e-04  
    1.33000       1.3300     2.011e-04  
    1.34000       1.3400     1.672e-04  
    1.35000       1.3500     1.390e-04  
    1.36000       1.3600     1.156e-04  
    1.37000       1.3700     9.614e-05  
    1.38000       1.3800     7.998e-05  
    1.39000       1.3900     6.655e-05  
    1.40000       1.4000     5.538e-05  
    1.41000       1.4100     4.610e-05  
    1.42000       1.4200     3.838e-05  
    1.43000       1.4300     3.196e-05  
    1.44000       1.4400     2.662e-05  
    1.45000       1.4500     2.217e-05  
    1.46000       1.4600     1.847e-05  
    1.47000       1.4700     1.539e-05  
    1.48000       1.4800     1.283e-05  
    1.49000       1.4900     1.069e-05  
    1.50000       1.5000     8.917e-06  
    1.51000       1.5100     7.435e-06  
    1.52000       1.5200     6.202e-06  
    1.53000       1.5300     5.173e-06  
    1.54000       1.5400     4.317e-06  
    1.55000       1.5500     3.603e-06  
    1.56000       1.5600     3.007e-06  
    1.57000       1.5700     2.511e-06  
    1.58000       1.5800     2.097e-06  
    1.59000       1.5900     1.752e-06  
    1.60000       1.6000     1.464e-06  
    1.61000       1.6100     1.224e-06  
    1.62000       1.6200     1.024e-06  
    1.63000       1.6300     8.570e-07  
    1.64000       1.6400     7.176e-07  
    1.65000       1.6500     6.012e-07  
    1.66000       1.6600     5.041e-07  
    1.67000       1.6700       0.       
    1.68000       1.6800       0.       
    1.69000       1.6900       0.       
    1.70000       1.7000       0.       
    1.71000       1.7100       0.       
    1.72000       1.7200       0.       
    1.73000       1.7300       0.       
    1.74000       1.7400       0.       
    1.75000       1.7500       0.       
    1.76000       1.7600       0.       
    1.77000       1.7700       0.       
    1.78000       1.7800       0.       
    1.79000       1.7900       0.       
    1.80000       1.8000       0.       
y
-----------------------------------------------

          ***** job concluded
1****** HSPICE -- G-2012.06-SP1 32-BIT (Aug 27 2012) win32 ******               
 ******  
 *inv dc analysis

  ******  job statistics summary tnom=  25.000 temp=  25.000 *****

  ******  HSPICE Threads Information  ******

  Command Line Threads Count :     1
  Available CPU Count        :     8
  Actual Threads Count       :     1


  ******  Circuit Statistics  ******
  # nodes       =       4 # elements   =       4
  # resistors   =       0 # capacitors =       0 # inductors   =       0
  # mutual_inds =       0 # vccs       =       0 # vcvs        =       0
  # cccs        =       0 # ccvs       =       0 # volt_srcs   =       2
  # curr_srcs   =       0 # diodes     =       0 # bjts        =       0
  # jfets       =       0 # mosfets    =       2 # U elements  =       0
  # T elements  =       0 # W elements =       0 # B elements  =       0
  # S elements  =       0 # P elements =       0 # va device   =       0
  # vector_srcs =       0 # N elements =       0


  ******  Runtime Statistics (seconds)  ******

  analysis           time    # points   tot. iter  conv.iter
  op point           0.00           1           0
  dc sweep           0.01         181         427
  readin             0.11
  errchk             0.02
  setup              0.03
  output             0.00


           peak memory used         49.53 megabytes
           total cpu time            0.19 seconds
           total elapsed time        0.29 seconds
           job started at     10:01:21 11/14/2008
           job ended   at     10:01:21 11/14/2008


  lic: Release hspice token(s) 
 lic: total license checkout elapse time:        0.09(s)
