 ****** HSPICE -- G-2012.06-SP1 32-BIT (Aug 27 2012) win32 ******               
  Copyright (C) 2012 Synopsys, Inc. All Rights Reserved.                        
  Unpublished-rights reserved under US copyright laws.
  This program is protected by law and is subject to the
  terms and conditions of the license agreement from Synopsys.
  Use of this program is your acceptance to be bound by the
  license agreement. HSPICE is the trademark of Synopsys, Inc.
  Input File: nand.sp                                                           
  Command line options: -i nand.sp -o nand.lis
  lic:  
  lic: FLEXlm: v10.9.8 
  lic: USER:   hmr                  HOSTNAME: BF-201911211153 
  lic: HOSTID: "70c94e3215e4 0c9d922ee649 00ffaabbccdd 005056c00001 005056c00008
  70c94e31fa78 12c94e3
  lic: Using FLEXlm license file: 
  lic: D:\synopsys\Hspice_G-2012.06-SP1\license.dat 
  lic: Checkout 1 hspice 
  lic: License/Maintenance for hspice will expire on 31-dec-2019/2019.12 
  lic: NODE LOCKED license on hostid "70c94e3215e4 0c9d922ee649 00ffaabbccdd 005
 056c00001 005056c0000
  lic:   
 Init: read install configuration file: d:\synopsys\Hspice_G-2012.06-SP1\meta.cfg
  **info** (nand.sp:9) DC voltage reset to initial transient source value              in source        0:va                  new dc=  0.0000D+00
 ***************************************************************************
 ***        model parameters  model name:   0:pch.7    model type:pmos   ***
 ***************************************************************************

   *** general parameters ***
    deriv=   0.           

   ***  level 49  model parameters  ***

       hspver=     2000.2               level=         49         
      version=        3.2            paramchk=          1         
       apwarn=          1                lite=          0         
       vgslim=          0             binUnit=          2         
       capMod=          3               xpart=          0         
       mobMod=          1              nqsMod=          0         
       stiMod=          0                 elm=          5         
     sfvtflag=          0                 tox=  4.08e-009 meter   
           xj=   1.5e-007 meter       binflag=          0         
         lmin=     5e-007 meter          lmax=   1.2e-006 meter   
         wmin=   1.2e-006 meter          wmax= 0.00010001 meter   
         lref=     5e-007 meter          wref=   1.2e-006 meter   
         lint=     2e-008 meter          wint=     2e-008 meter   
        lmult=          1               wmult=          1         
           ll=          0                 lln=         -1         
           lw=          0                 lwn=          1         
          lwl=          0                  wl=          0         
          wln=          1                  ww=          0         
          wwn=          1                 wwl=          0         
          dwg=          0 m/V             dwb=          0 m/V^1/2 
           xl=  -1.3e-008                  xw=          0         
           a0=   0.755235                 ags=  0.0103497 V^-1    
           b0=          0 meter            b1=          0 meter   
         keta=   0.031526 V^-1           voff=  -0.109135 V       
        ngate=     5e+020 cm^-3           vbx=          0 V       
          vbm=         -3 V                xt=  1.55e-007 meter   
         vth0=  -0.445955 V               nch=  4.01e+017 cm^-3   
         nsub=     6e+016 cm^-3           nlx=          0 meter   
       gamma1=          0 V^-1/2       gamma2=          0 V^-1/2  
           k1=   0.656725 V^1/2            k2=      -0.01         
           k3=          0                 k3b=          0 V^-1    
           w0=          0 meter          dvt0=          0         
         dvt1=          0                dvt2=          0 V^-1    
        dvt0w=          0 meter^-1      dvt1w=          0 meter^-1
        dvt2w=          0 V^-1           dsub=          0         
         eta0=     0.0002                etab=-1.3367e-005 V^-1    
           u0= 0.00923477 m^2/V/sec         ua=-1.11141e-010 m/V     
           ub=1.7549e-018 (m/V)^2          uc=-1.25221e-011 V^-1    
         vsat=    45855.4 m/sec            a1=          0 v^-1    
           a2=        0.4               delta=       0.01 V       
         rdsw=        500 ohm-um         prwg=          0 V^-1    
         prwb=          0 V^-1/2           wr=          1         
         pclm=   0.860548             pdiblc1=0.000145246         
      pdiblc2=     1e-005             pdiblcb=          0 V^-1    
       pscbe1=     2e+008 V/m          pscbe2=     4e-008 V/m     
        drout=          0                pvag=          0         
      nfactor=          1                cdsc=          0 f/m^2   
        cdscb=          0 f/V/m^2       cdscd=          0 f/V/m^2 
          cit=0.000427725 f/m^2        alpha0=          0 m/V     
        beta0=    20.9499 V               dlc=     6e-009 meter   
          dwc=     5e-009 meter           clc=     1e-007 meter   
          cle=        0.6                cgso=   3.3e-010 f/m     
         cgdo=   3.3e-010 f/m            cgbo=     1e-013 f/m     
         cgsl=          0 f/m            cgdl=          0 f/m     
       ckappa=        0.6                  cf=          0 f/m     
         acde=       0.84 m/V            moin=         15 V^1/2   
         toxm=  4.08e-009 m            dtoxcv=          0 m       
          vfb=         -1 V            alpha1=    1.14139 1/V     
         ijth=        0.1 A              noff=          1         
       voffcv=          0                 tcj=      0.001 1/K     
        tcjsw=     0.0005 1/K          tcjswg=     0.0005 1/K     
          tpb=      0.002 V/K           tpbsw=      0.002 V/K     
       tpbswg=      0.002 V/K             llc=     -0.048         
          lwc=          0                lwlc=          0         
          wlc=          0                 wwc=          0         
         wwlc=          0                tnom=     298.15 K       
          kt1=  -0.273114 V              kt1l=          0         
          kt2= -0.0269848                 ute=  -0.730833         
          ua1=1.39181e-009 m/V             ub1=-1.37505e-018 (m/V)^2 
          uc1=-7.85685e-011 m/V^2            at=      10000 m/s     
          prt=          0         
          using Berkeley noise model       noiMod=          2         
         noia=  7.29e+018                noib=      83200         
         noic=   1.7e-012                  em=   4.2e+007         
           ef=       1.05                  af=          1         
           kf=          0              gdsnoi=-1.23457e-029         
          using Berkeley diodes          using ACM 
          acm=        12                 hdif= 1.77e-007 meter    
         ldif= 1.24e-007 meter             js= 2.74e-007 amp/m^2  
          jsw=  5.6e-013 amp/m            xti=         3          
           nj=         1                   cj=   0.00107 f/m^2    
           mj=     0.418                   pb=    0.7881 V        
         cjsw= 2.36e-010 f/m             mjsw=     0.268          
          php (not used)                  pbsw=     0.738 V        
       cjgate (not used)                 cjswg= 4.11e-010 f/m      
        mjswg=     0.268                pbswg=       0.6 V        
          la0=2.77618e-007                lags=2.21501e-007         
        lketa=-9.99989e-009               lvoff=-1.40362e-009         
        lvth0=-4.00845e-009                 lk1=-1.92898e-009         
        letab=3.86196e-012                 lu0=-5.23712e-010         
          lua=-6.99948e-017                 lub=-9.68055e-026         
          luc=-2.63472e-017               lvsat=  0.0162239         
        lpclm=1.68069e-007            lpdiblc1=1.26199e-009         
         lcit=8.28991e-011              lbeta0=1.01243e-006         
         lkt1=1.51449e-009                lkt2=1.66614e-009         
         lute=-2.22349e-008                lua1=-1.41228e-017         
         lub1=-1.37885e-025                luc1=2.32112e-017         
      lalpha1=3.33514e-006                 wa0=5.32486e-008         
         wags=-1.52461e-008               wketa=-5.26825e-009         
        wvoff=4.55242e-009               wvth0=1.77955e-008         
          wk1=1.32379e-009               wetab=3.35354e-011         
          wu0=-9.85235e-010                 wua=1.24029e-016         
          wub=-4.42058e-025                 wuc=-6.42969e-017         
        wvsat= 0.00159293               wpclm=-2.60219e-008         
     wpdiblc1=2.53825e-010                wcit=8.38386e-011         
       wbeta0=1.05952e-006                wkt1=-5.74548e-009         
         wkt2=1.31732e-009                wute=-9.93006e-008         
         wua1=-3.29289e-016                wub1=3.28077e-026         
         wuc1=7.7885e-017             walpha1=3.49988e-006         
          pa0=-6.0775e-014                pags=-4.6062e-014         
        pketa=7.09682e-015               pvoff=2.30791e-015         
        pvth0=-3.84652e-015                 pk1=8.27001e-015         
        petab=-3.84652e-017                 pu0=-1.44244e-017         
          pua=-6.15443e-023                 pub=1.47129e-031         
          puc=2.93393e-023               pvsat=-1.8271e-009         
        ppclm=4.03884e-014            ppdiblc1=-2.62525e-016         
         pcit=-9.61629e-017              pbeta0=-6.7314e-013         
         pkt1=1.33666e-014                pkt2=9.13548e-016         
         pute=8.21231e-014                pua1=7.50071e-023         
         pub1=-3.46186e-032                puc1=-4.30425e-023         
      palpha1=-2.46177e-012         
 ***************************************************************************
 ***        model parameters  model name:   0:nch.7    model type:nmos   ***
 ***************************************************************************

   *** general parameters ***
    deriv=   0.           

   ***  level 49  model parameters  ***

       hspver=     2000.2               level=         49         
      version=        3.2            paramchk=          1         
       apwarn=          1                lite=          0         
       vgslim=          0             binUnit=          2         
       capMod=          3               xpart=          0         
       mobMod=          1              nqsMod=          0         
       stiMod=          0                 elm=          5         
     sfvtflag=          0                 tox=  4.08e-009 meter   
           xj=   1.5e-007 meter       binflag=          0         
         lmin=     5e-007 meter          lmax=   1.2e-006 meter   
         wmin=   1.2e-006 meter          wmax= 0.00010001 meter   
         lref=     5e-007 meter          wref=   1.2e-006 meter   
         lint=   1.3e-008 meter          wint=     2e-008 meter   
        lmult=          1               wmult=          1         
           ll=          0                 lln=         -1         
           lw=          0                 lwn=          1         
          lwl=          0                  wl=          0         
          wln=          1                  ww=          0         
          wwn=          1                 wwl=          0         
          dwg=          0 m/V             dwb=          0 m/V^1/2 
           xl=  -1.3e-008                  xw=          0         
           a0=  -0.223915                 ags=    1.48724 V^-1    
           b0=          0 meter            b1=          0 meter   
         keta=  -0.036649 V^-1           voff=  -0.118993 V       
        ngate=     5e+020 cm^-3           vbx=          0 V       
          vbm=         -3 V                xt=  1.55e-007 meter   
         vth0=   0.462634 V               nch=  4.01e+017 cm^-3   
         nsub=     6e+016 cm^-3           nlx=          0 meter   
       gamma1=          0 V^-1/2       gamma2=          0 V^-1/2  
           k1=   0.576073 V^1/2            k2=      -0.01         
           k3=          0                 k3b=          0 V^-1    
           w0=          0 meter          dvt0=          0         
         dvt1=          0                dvt2=          0 V^-1    
        dvt0w=          0 meter^-1      dvt1w=          0 meter^-1
        dvt2w=          0 V^-1           dsub=          0         
         eta0=     0.0001                etab=-3.89533e-005 V^-1    
           u0=  0.0466275 m^2/V/sec         ua=-7.57554e-010 m/V     
           ub=2.82988e-018 (m/V)^2          uc=1.41577e-010 V^-1    
         vsat=    68845.3 m/sec            a1=          0 v^-1    
           a2=       0.99               delta=       0.01 V       
         rdsw=      164.4 ohm-um         prwg=          0 V^-1    
         prwb=          0 V^-1/2           wr=          1         
         pclm=     1.0056             pdiblc1= 0.00046528         
      pdiblc2=     1e-005             pdiblcb=          0 V^-1    
       pscbe1=     2e+008 V/m          pscbe2=     1e-008 V/m     
        drout=          0                pvag=          0         
      nfactor=          1                cdsc=          0 f/m^2   
        cdscb=          0 f/V/m^2       cdscd=          0 f/V/m^2 
          cit=     0.0008 f/m^2        alpha0=          0 m/V     
        beta0=     11.787 V               dlc=     6e-009 meter   
          dwc=     3e-009 meter           clc=     1e-007 meter   
          cle=        0.6                cgso=  3.52e-010 f/m     
         cgdo=  3.52e-010 f/m            cgbo=     1e-013 f/m     
         cgsl=          0 f/m            cgdl=          0 f/m     
       ckappa=        0.6                  cf=          0 f/m     
         acde=        0.7 m/V            moin=         15 V^1/2   
         toxm=  4.08e-009 m            dtoxcv=          0 m       
          vfb=         -1 V            alpha1=    0.48542 1/V     
         ijth=        0.1 A              noff=          1         
       voffcv=          0                 tcj=    0.00105 1/K     
        tcjsw=   0.000463 1/K          tcjswg=   0.000463 1/K     
          tpb=    0.00164 V/K           tpbsw=   0.000526 V/K     
       tpbswg=   0.000526 V/K             llc=     -0.048         
          lwc=          0                lwlc=          0         
          wlc=          0                 wwc=          0         
         wwlc=          0                tnom=     298.15 K       
          kt1=  -0.259883 V              kt1l=          0         
          kt2= -0.0295121                 ute=   -1.66187         
          ua1=3.24264e-010 m/V             ub1=5.56191e-019 (m/V)^2 
          uc1=-3.64232e-011 m/V^2            at=    31037.9 m/s     
          prt=          0         
          using Berkeley noise model       noiMod=          2         
         noia=  1.73e+020                noib=        871         
         noic=   2.1e-013                  em=   4.2e+007         
           ef=       0.86                  af=          1         
           kf=          0              gdsnoi=-1.23457e-029         
          using Berkeley diodes          using ACM 
          acm=        12                 hdif= 1.77e-007 meter    
         ldif= 1.24e-007 meter             js= 3.23e-007 amp/m^2  
          jsw=  6.7e-013 amp/m            xti=         3          
           nj=         1                   cj=   0.00101 f/m^2    
           mj=     0.349                   pb=    0.6302 V        
         cjsw= 1.94e-010 f/m             mjsw=     0.162          
          php (not used)                  pbsw=       0.6 V        
       cjgate (not used)                 cjswg= 3.51e-010 f/m      
        mjswg=      0.41                pbswg=       0.6 V        
          la0=4.62648e-007                lags=-5.71605e-007         
        lketa=-2.19625e-009               lvoff=1.87536e-009         
        lvth0=4.97964e-009                 lk1=-3.24573e-009         
        letab=-2.16865e-011                 lu0=-2.84512e-009         
          lua=-2.08347e-016                 lub=1.29044e-026         
          luc=-8.14394e-018               lvsat= 0.00891035         
        lpclm=5.81445e-008            lpdiblc1=5.50213e-010         
       lbeta0=-3.19742e-009                lkt1=2.06762e-008         
         lkt2=3.95577e-009                lute=1.23587e-008         
         lua1=7.62307e-016                lub1=-1.55155e-024         
         luc1=-1.54119e-017                 lat=-0.00508849         
      lalpha1=1.80161e-008                 wa0=4.12881e-007         
         wags=-1.61231e-006               wketa=3.56849e-008         
        wvoff=8.09202e-009               wvth0=-2.02578e-008         
          wk1=8.23925e-009               wetab=6.92558e-011         
          wu0=-1.18602e-008                 wua=-4.91426e-016         
          wub=-1.86101e-025                 wuc=-7.17867e-018         
        wvsat=  0.0600035               wpclm=-2.03032e-007         
     wpdiblc1=-1.33886e-010              wbeta0=-2.37599e-007         
         wkt1=-1.32476e-008                wkt2=9.80931e-010         
         wute=-7.75667e-008                wua1=5.95181e-016         
         wub1=-1.73869e-024                wuc1=-9.1911e-017         
          wat=  -0.012804             walpha1=-5.25272e-008         
          pa0=-2.75557e-013                pags=7.34017e-013         
        pketa=-1.52887e-014               pvoff=-4.01541e-016         
        pvth0=1.28493e-014                 pk1=1.10424e-015         
        petab=-6.61539e-017                 pu0=3.2826e-015         
          pua=2.93125e-022                 pub=-2.5799e-031         
          puc=-2.24562e-023               pvsat=-2.94229e-008         
        ppclm=2.50963e-013            ppdiblc1=1.68246e-016         
       pbeta0=-1.20462e-013                pkt1=1.20462e-015         
         pkt2=-2.0077e-015                pute=1.96755e-013         
         pua1=-5.17084e-022                pub1=1.6162e-030         
         puc1=5.51115e-023                 pat=5.90265e-009         
      palpha1=-4.23626e-014         
 

  
      
 **info** set option symb=1 internally to help for convergence.
 *****************************************************************
 ******  option summary
 ******
 runlvl  = 3         bypass  = 2         
1****** HSPICE -- G-2012.06-SP1 32-BIT (Aug 27 2012) win32 ******               
 ******  
 *nand gate hspice file

  ******  operating point information tnom=  25.000 temp=  25.000 *****
 ***** operating point status is all       simulation time is     0.     
    node    =voltage      node    =voltage      node    =voltage

 +0:1       =   1.8000  0:a       =   0.      0:b       =   0.     
 +0:vn      = 3.597e-02 0:vo      =   1.8000 


 **** voltage sources

 subckt                                   
 element  0:v1       0:va       0:vb      
  volts      1.8000     0.         0.     
  current -4.555e-12    0.         0.     
  power    8.200e-12    0.         0.     

     total voltage source power dissipation=  8.200e-12       watts




 **** mosfets


 subckt                                              
 element  0:mp1      0:mp2      0:mn1      0:mn2     
 model    0:pch.7    0:pch.7    0:nch.7    0:nch.7   
 region       Linear     Linear     Cutoff     Cutoff
  id      -2.278e-12 -2.278e-12  9.954e-13  2.652e-12
  ibs      1.180e-28  1.180e-28 -2.549e-18 -1.472e-28
  ibd      1.655e-24  1.655e-24 -9.101e-16 -2.549e-18
  vgs       -1.8000    -1.8000  -3.597e-02    0.     
  vds     -6.562e-09 -6.562e-09    1.7640   3.597e-02
  vbs        0.         0.      -3.597e-02    0.     
  vth       -0.4474    -0.4474     0.4743     0.4643 
  vdsat     -0.9727    -0.9727   4.701e-02  4.689e-02
  vod       -1.3526    -1.3526    -0.5103    -0.4643 
