 ****** HSPICE -- G-2012.06-SP1 32-BIT (Aug 27 2012) win32 ******               
  Copyright (C) 2012 Synopsys, Inc. All Rights Reserved.                        
  Unpublished-rights reserved under US copyright laws.
  This program is protected by law and is subject to the
  terms and conditions of the license agreement from Synopsys.
  Use of this program is your acceptance to be bound by the
  license agreement. HSPICE is the trademark of Synopsys, Inc.
  Input File: nmos.sp                                                           
  Command line options: -i nmos.sp -o nmos.lis
  lic:  
  lic: FLEXlm: v10.9.8 
  lic: USER:   hmr                  HOSTNAME: BF-201911211153 
  lic: HOSTID: "70c94e3215e4 0c9d922ee649 00ffaabbccdd 005056c00001 005056c00008
  70c94e31fa78 12c94e3
  lic: Using FLEXlm license file: 
  lic: D:\synopsys\Hspice_G-2012.06-SP1\license.dat 
  lic: Checkout 1 hspice 
  lic: License/Maintenance for hspice will expire on 31-dec-2019/2019.12 
  lic: NODE LOCKED license on hostid "70c94e3215e4 0c9d922ee649 00ffaabbccdd 005
 056c00001 005056c0000
  lic:   
 Init: read install configuration file: d:\synopsys\Hspice_G-2012.06-SP1\meta.cfg
 ***************************************************************************
 ***        model parameters  model name:   0:nch.8    model type:nmos   ***
 ***************************************************************************

   *** general parameters ***
    deriv=   0.           

   ***  level 49  model parameters  ***

       hspver=     2000.2               level=         49         
      version=        3.2            paramchk=          1         
       apwarn=          1                lite=          0         
       vgslim=          0             binUnit=          2         
       capMod=          3               xpart=          0         
       mobMod=          1              nqsMod=          0         
       stiMod=          0                 elm=          5         
     sfvtflag=          0                 tox=  4.08e-009 meter   
           xj=   1.5e-007 meter       binflag=          0         
         lmin=   1.2e-006 meter          lmax=2.0001e-005 meter   
         wmin=   1.2e-006 meter          wmax= 0.00010001 meter   
         lref=   1.2e-006 meter          wref=   1.2e-006 meter   
         lint=   1.3e-008 meter          wint=     2e-008 meter   
        lmult=          1               wmult=          1         
           ll=          0                 lln=         -1         
           lw=          0                 lwn=          1         
          lwl=          0                  wl=          0         
          wln=          1                  ww=          0         
          wwn=          1                 wwl=          0         
          dwg=          0 m/V             dwb=          0 m/V^1/2 
           xl=  -1.3e-008                  xw=          0         
           a0=    0.57391                 ags=       0.22 V^-1    
           b0=          0 meter            b1=          0 meter   
         keta=  0.0047187 V^-1           voff=  -0.105143 V       
        ngate=     5e+020 cm^-3           vbx=          0 V       
          vbm=         -3 V                xt=  1.55e-007 meter   
         vth0=   0.404319 V               nch=  4.01e+017 cm^-3   
         nsub=     6e+016 cm^-3           nlx=          0 meter   
       gamma1=          0 V^-1/2       gamma2=          0 V^-1/2  
           k1=   0.584804 V^1/2            k2=      -0.01         
           k3=          0                 k3b=          0 V^-1    
           w0=          0 meter          dvt0=          0         
         dvt1=          0                dvt2=          0 V^-1    
        dvt0w=          0 meter^-1      dvt1w=          0 meter^-1
        dvt2w=          0 V^-1           dsub=          0         
         eta0=     0.0001                etab=8.16163e-008 V^-1    
           u0=  0.0352123 m^2/V/sec         ua=-1.06951e-009 m/V     
           ub=2.50656e-018 (m/V)^2          uc=1.04811e-010 V^-1    
         vsat=    80459.1 m/sec            a1=          0 v^-1    
           a2=       0.99               delta=       0.01 V       
         rdsw=      164.4 ohm-um         prwg=          0 V^-1    
         prwb=          0 V^-1/2           wr=          1         
         pclm=    0.47368             pdiblc1=0.000200258         
      pdiblc2=     1e-005             pdiblcb=          0 V^-1    
       pscbe1=     2e+008 V/m          pscbe2=3.94857e-007 V/m     
        drout=          0                pvag=          0         
      nfactor=          1                cdsc=          0 f/m^2   
        cdscb=          0 f/V/m^2       cdscd=          0 f/V/m^2 
          cit=     0.0008 f/m^2        alpha0=          0 m/V     
        beta0=    11.8162 V               dlc=     6e-009 meter   
          dwc=     3e-009 meter           clc=     1e-007 meter   
          cle=        0.6                cgso=  3.52e-010 f/m     
         cgdo=  3.52e-010 f/m            cgbo=     1e-013 f/m     
         cgsl=          0 f/m            cgdl=          0 f/m     
       ckappa=        0.6                  cf=          0 f/m     
         acde=        0.7 m/V            moin=         15 V^1/2   
         toxm=  4.08e-009 m            dtoxcv=          0 m       
          vfb=         -1 V            alpha1=   0.514232 1/V     
         ijth=        0.1 A              noff=          1         
       voffcv=          0                 tcj=    0.00105 1/K     
        tcjsw=   0.000463 1/K          tcjswg=   0.000463 1/K     
          tpb=    0.00164 V/K           tpbsw=   0.000526 V/K     
       tpbswg=   0.000526 V/K             llc=     -0.048         
          lwc=          0                lwlc=          0         
          wlc=          0                 wwc=          0         
         wwlc=          0                tnom=     298.15 K       
          kt1=  -0.247003 V              kt1l=          0         
          kt2= -0.0277815                 ute=   -1.61824         
          ua1=1.07295e-009 m/V             ub1=-9.93955e-019 (m/V)^2 
          uc1=-3.51884e-011 m/V^2            at=      19122 m/s     
          prt=          0         
          using Berkeley noise model       noiMod=          2         
         noia=  1.73e+020                noib=        871         
         noic=   2.1e-013                  em=   4.2e+007         
           ef=       0.86                  af=          1         
           kf=          0              gdsnoi=-1.23457e-029         
          using Berkeley diodes          using ACM 
          acm=        12                 hdif= 1.77e-007 meter    
         ldif= 1.24e-007 meter             js= 3.23e-007 amp/m^2  
          jsw=  6.7e-013 amp/m            xti=         3          
           nj=         1                   cj=   0.00101 f/m^2    
           mj=     0.349                   pb=    0.6302 V        
         cjsw= 1.94e-010 f/m             mjsw=     0.162          
          php (not used)                  pbsw=       0.6 V        
       cjgate (not used)                 cjswg= 3.51e-010 f/m      
        mjswg=      0.41                pbswg=       0.6 V        
          la0=-4.63626e-007                lags=8.99662e-007         
        lketa=-5.02241e-008               lvoff=-1.4205e-008         
        lvth0=7.26827e-008                 lk1=-1.33831e-008         
        letab=-6.70061e-011                 lu0=1.04079e-008         
          lua=1.53839e-016                 lub=3.88284e-025         
          luc=3.45414e-017               lvsat=-0.00457332         
        lpclm=6.75704e-007            lpdiblc1=8.57903e-010         
      lpscbe2=-4.46819e-013              lbeta0=-3.70955e-008         
         lkt1=5.72263e-009                lkt2=1.94659e-009         
         lute=-3.82962e-008                lua1=-1.06913e-016         
         lub1=2.4817e-025                luc1=-1.68456e-017         
          lat= 0.00874594             lalpha1=-1.5435e-008         
          wa0=-3.31678e-007                wags=-2.12504e-007         
        wketa=-1.05989e-008               wvoff=-1.60318e-008         
        wvth0=1.68168e-008                 wk1=1.27571e-008         
        wetab=-3.94414e-011                 wu0=2.35089e-009         
          wua=5.50925e-016                 wub=-6.62442e-025         
          wuc=-1.31754e-017               wvsat=-0.00457286         
        wpclm=3.46467e-007            wpdiblc1=-8.24487e-011         
       wbeta0=-7.72332e-007                wkt1=-3.21066e-010         
         wkt2=1.97125e-009                wute=3.39448e-008         
         wua1=1.2439e-016                wub1=-5.17512e-025         
         wuc1=-1.04853e-016                 wat=  0.0010185         
      walpha1=-1.88734e-007                 pa0=5.88875e-013         
         pags=-8.91164e-013               pketa=3.84469e-014         
        pvoff=2.76062e-014               pvth0=-3.01943e-014         
          pk1=-4.14093e-015               petab=6.00436e-017         
          pu0=-1.32165e-014                 pua=-9.17045e-022         
          pub=2.95042e-031                 puc=-1.5494e-023         
        pvsat=4.55503e-008               ppclm=-3.87005e-013         
     ppdiblc1=1.08527e-016              pbeta0=5.00363e-013         
         pkt1=-1.38031e-014                pkt2=-3.15746e-015         
         pute=6.72902e-014                pua1=2.95042e-023         
         pub1=1.9842e-031                puc1=7.01371e-023         
          pat=-1.01453e-008             palpha1=1.15774e-013         
 

  

 **warning** the following singular supplies were terminated to 1 meg resistor 
   supply       node1            node2
  vdd                     0:vdd              defined in subckt 0                     0:0                defined in subckt 0               
      
 **info** set option symb=1 internally to help for convergence.
 *****************************************************************
 ******  option summary
 ******
 runlvl  = 3         bypass  = 2         
 ******  
 *sample netlist for gsmc

  ******  dc transfer curves tnom=  25.000 temp=  25.000 *****

   *** source        0:vgs =    0.            ***

x

        volt    voltage      current      current      current    
                     d         mnmos1       mnmos2       mnmos3   
    0.            0.           0.           0.           0.       
  1.0000e-02    1.000e-02    8.303e-12    9.965e-12    1.163e-11  
  2.0000e-02    2.000e-02    1.443e-11    1.732e-11    2.020e-11  
  3.0000e-02    3.000e-02    1.867e-11    2.240e-11    2.613e-11  
  4.0000e-02    4.000e-02    2.141e-11    2.569e-11    2.996e-11  
  5.0000e-02    5.000e-02    2.309e-11    2.770e-11    3.231e-11  
  6.0000e-02    6.000e-02    2.411e-11    2.892e-11    3.373e-11  
  7.0000e-02    7.000e-02    2.473e-11    2.966e-11    3.459e-11  
  8.0000e-02    8.000e-02    2.513e-11    3.014e-11    3.514e-11  
  9.0000e-02    9.000e-02    2.540e-11    3.045e-11    3.550e-11  
    0.10000       0.1000     2.558e-11    3.067e-11    3.576e-11  
    0.11000       0.1100     2.572e-11    3.083e-11    3.594e-11  
    0.12000       0.1200     2.583e-11    3.096e-11    3.608e-11  
    0.13000       0.1300     2.592e-11    3.106e-11    3.620e-11  
    0.14000       0.1400     2.599e-11    3.114e-11    3.629e-11  
    0.15000       0.1500     2.605e-11    3.121e-11    3.637e-11  
    0.16000       0.1600     2.611e-11    3.127e-11    3.644e-11  
    0.17000       0.1700     2.616e-11    3.133e-11    3.650e-11  
    0.18000       0.1800     2.620e-11    3.138e-11    3.656e-11  
    0.19000       0.1900     2.625e-11    3.143e-11    3.661e-11  
    0.20000       0.2000     2.629e-11    3.147e-11    3.666e-11  
    0.21000       0.2100     2.632e-11    3.151e-11    3.670e-11  
    0.22000       0.2200     2.636e-11    3.155e-11    3.675e-11  
    0.23000       0.2300     2.640e-11    3.159e-11    3.679e-11  
    0.24000       0.2400     2.643e-11    3.163e-11    3.683e-11  
    0.25000       0.2500     2.647e-11    3.167e-11    3.687e-11  
    0.26000       0.2600     2.650e-11    3.170e-11    3.691e-11  
    0.27000       0.2700     2.653e-11    3.174e-11    3.695e-11  
    0.28000       0.2800     2.656e-11    3.177e-11    3.698e-11  
    0.29000       0.2900     2.659e-11    3.181e-11    3.702e-11  
    0.30000       0.3000     2.663e-11    3.184e-11    3.705e-11  
    0.31000       0.3100     2.666e-11    3.187e-11    3.709e-11  
    0.32000       0.3200     2.669e-11    3.191e-11    3.712e-11  
    0.33000       0.3300     2.672e-11    3.194e-11    3.716e-11  
    0.34000       0.3400     2.675e-11    3.197e-11    3.719e-11  
    0.35000       0.3500     2.678e-11    3.200e-11    3.723e-11  
    0.36000       0.3600     2.681e-11    3.203e-11    3.726e-11  
    0.37000       0.3700     2.684e-11    3.206e-11    3.729e-11  
    0.38000       0.3800     2.687e-11    3.210e-11    3.733e-11  
    0.39000       0.3900     2.690e-11    3.213e-11    3.736e-11  
    0.40000       0.4000     2.692e-11    3.216e-11    3.739e-11  
    0.41000       0.4100     2.695e-11    3.219e-11    3.743e-11  
    0.42000       0.4200     2.698e-11    3.222e-11    3.746e-11  
    0.43000       0.4300     2.701e-11    3.225e-11    3.749e-11  
    0.44000       0.4400     2.704e-11    3.228e-11    3.752e-11  
    0.45000       0.4500     2.707e-11    3.231e-11    3.756e-11  
    0.46000       0.4600     2.710e-11    3.234e-11    3.759e-11  
    0.47000       0.4700     2.713e-11    3.237e-11    3.762e-11  
    0.48000       0.4800     2.716e-11    3.240e-11    3.765e-11  
    0.49000       0.4900     2.718e-11    3.243e-11    3.769e-11  
    0.50000       0.5000     2.721e-11    3.247e-11    3.772e-11  
    0.51000       0.5100     2.724e-11    3.250e-11    3.775e-11  
    0.52000       0.5200     2.727e-11    3.253e-11    3.778e-11  
    0.53000       0.5300     2.730e-11    3.256e-11    3.781e-11  
    0.54000       0.5400     2.733e-11    3.259e-11    3.785e-11  
    0.55000       0.5500     2.736e-11    3.262e-11    3.788e-11  
    0.56000       0.5600     2.739e-11    3.265e-11    3.791e-11  
    0.57000       0.5700     2.741e-11    3.268e-11    3.794e-11  
    0.58000       0.5800     2.744e-11    3.271e-11    3.797e-11  
    0.59000       0.5900     2.747e-11    3.274e-11    3.800e-11  
    0.60000       0.6000     2.750e-11    3.277e-11    3.804e-11  
    0.61000       0.6100     2.753e-11    3.280e-11    3.807e-11  
    0.62000       0.6200     2.756e-11    3.283e-11    3.810e-11  
    0.63000       0.6300     2.758e-11    3.286e-11    3.813e-11  
    0.64000       0.6400     2.761e-11    3.289e-11    3.816e-11  
    0.65000       0.6500     2.764e-11    3.292e-11    3.820e-11  
    0.66000       0.6600     2.767e-11    3.295e-11    3.823e-11  
    0.67000       0.6700     2.770e-11    3.298e-11    3.826e-11  
    0.68000       0.6800     2.773e-11    3.301e-11    3.829e-11  
    0.69000       0.6900     2.775e-11    3.304e-11    3.832e-11  
    0.70000       0.7000     2.778e-11    3.307e-11    3.835e-11  
    0.71000       0.7100     2.781e-11    3.310e-11    3.839e-11  
    0.72000       0.7200     2.784e-11    3.313e-11    3.842e-11  
    0.73000       0.7300     2.787e-11    3.316e-11    3.845e-11  
    0.74000       0.7400     2.790e-11    3.319e-11    3.848e-11  
    0.75000       0.7500     2.792e-11    3.322e-11    3.851e-11  
    0.76000       0.7600     2.795e-11    3.325e-11    3.854e-11  
    0.77000       0.7700     2.798e-11    3.328e-11    3.858e-11  
    0.78000       0.7800     2.801e-11    3.331e-11    3.861e-11  
    0.79000       0.7900     2.804e-11    3.334e-11    3.864e-11  
    0.80000       0.8000     2.807e-11    3.337e-11    3.867e-11  
    0.81000       0.8100     2.809e-11    3.340e-11    3.870e-11  
    0.82000       0.8200     2.812e-11    3.343e-11    3.873e-11  
    0.83000       0.8300     2.815e-11    3.346e-11    3.876e-11  
    0.84000       0.8400     2.818e-11    3.349e-11    3.880e-11  
    0.85000       0.8500     2.821e-11    3.352e-11    3.883e-11  
    0.86000       0.8600     2.823e-11    3.355e-11    3.886e-11  
    0.87000       0.8700     2.826e-11    3.358e-11    3.889e-11  
    0.88000       0.8800     2.829e-11    3.361e-11    3.892e-11  
    0.89000       0.8900     2.832e-11    3.364e-11    3.895e-11  
    0.90000       0.9000     2.835e-11    3.367e-11    3.899e-11  
    0.91000       0.9100     2.838e-11    3.370e-11    3.902e-11  
    0.92000       0.9200     2.840e-11    3.373e-11    3.905e-11  
    0.93000       0.9300     2.843e-11    3.376e-11    3.908e-11  
    0.94000       0.9400     2.846e-11    3.379e-11    3.911e-11  
    0.95000       0.9500     2.849e-11    3.382e-11    3.914e-11  
    0.96000       0.9600     2.852e-11    3.385e-11    3.918e-11  
    0.97000       0.9700     2.855e-11    3.388e-11    3.921e-11  
    0.98000       0.9800     2.857e-11    3.391e-11    3.924e-11  
    0.99000       0.9900     2.860e-11    3.394e-11    3.927e-11  
    1.00000       1.0000     2.863e-11    3.397e-11    3.930e-11  
    1.01000       1.0100     2.866e-11    3.400e-11    3.933e-11  
    1.02000       1.0200     2.869e-11    3.403e-11    3.936e-11  
    1.03000       1.0300     2.872e-11    3.406e-11    3.940e-11  
    1.04000       1.0400     2.874e-11    3.409e-11    3.943e-11  
    1.05000       1.0500     2.877e-11    3.412e-11    3.946e-11  
    1.06000       1.0600     2.880e-11    3.415e-11    3.949e-11  
    1.07000       1.0700     2.883e-11    3.418e-11    3.952e-11  
    1.08000       1.0800     2.886e-11    3.421e-11    3.955e-11  
    1.09000       1.0900     2.888e-11    3.424e-11    3.959e-11  
    1.10000       1.1000     2.891e-11    3.426e-11    3.962e-11  
    1.11000       1.1100     2.894e-11    3.429e-11    3.965e-11  
    1.12000       1.1200     2.897e-11    3.432e-11    3.968e-11  
    1.13000       1.1300     2.900e-11    3.435e-11    3.971e-11  
    1.14000       1.1400     2.903e-11    3.438e-11    3.974e-11  
    1.15000       1.1500     2.905e-11    3.441e-11    3.978e-11  
    1.16000       1.1600     2.908e-11    3.444e-11    3.981e-11  
    1.17000       1.1700     2.911e-11    3.447e-11    3.984e-11  
    1.18000       1.1800     2.914e-11    3.450e-11    3.987e-11  
    1.19000       1.1900     2.917e-11    3.453e-11    3.990e-11  
    1.20000       1.2000     2.920e-11    3.456e-11    3.993e-11  
    1.21000       1.2100     2.922e-11    3.459e-11    3.997e-11  
    1.22000       1.2200     2.925e-11    3.462e-11    4.000e-11  
    1.23000       1.2300     2.928e-11    3.465e-11    4.003e-11  
    1.24000       1.2400     2.931e-11    3.468e-11    4.006e-11  
    1.25000       1.2500     2.934e-11    3.471e-11    4.009e-11  
    1.26000       1.2600     2.937e-11    3.474e-11    4.012e-11  
    1.27000       1.2700     2.939e-11    3.478e-11    4.016e-11  
    1.28000       1.2800     2.942e-11    3.481e-11    4.019e-11  
    1.29000       1.2900     2.945e-11    3.484e-11    4.022e-11  
    1.30000       1.3000     2.948e-11    3.487e-11    4.025e-11  
    1.31000       1.3100     2.951e-11    3.490e-11    4.028e-11  
    1.32000       1.3200     2.954e-11    3.493e-11    4.031e-11  
    1.33000       1.3300     2.957e-11    3.496e-11    4.035e-11  
    1.34000       1.3400     2.959e-11    3.499e-11    4.038e-11  
    1.35000       1.3500     2.962e-11    3.502e-11    4.041e-11  
    1.36000       1.3600     2.965e-11    3.505e-11    4.044e-11  
    1.37000       1.3700     2.968e-11    3.508e-11    4.047e-11  
    1.38000       1.3800     2.971e-11    3.511e-11    4.051e-11  
    1.39000       1.3900     2.974e-11    3.514e-11    4.054e-11  
    1.40000       1.4000     2.977e-11    3.517e-11    4.057e-11  
    1.41000       1.4100     2.979e-11    3.520e-11    4.060e-11  
