 ****** HSPICE -- G-2012.06-SP1 32-BIT (Aug 27 2012) win32 ******               
  Copyright (C) 2012 Synopsys, Inc. All Rights Reserved.                        
  Unpublished-rights reserved under US copyright laws.
  This program is protected by law and is subject to the
  terms and conditions of the license agreement from Synopsys.
  Use of this program is your acceptance to be bound by the
  license agreement. HSPICE is the trademark of Synopsys, Inc.
  Input File: nmos_l1_wl.sp                                                     
  Command line options: -i nmos_l1_wl.sp -o nmos_l1_wl.lis
  lic:  
  lic: FLEXlm: v10.9.8 
  lic: USER:   hmr                  HOSTNAME: BF-201911211153 
  lic: HOSTID: "70c94e3215e4 0c9d922ee649 00ffaabbccdd 005056c00001 005056c00008
  70c94e31fa78 12c94e3
  lic: Using FLEXlm license file: 
  lic: D:\synopsys\Hspice_G-2012.06-SP1\license.dat 
  lic: Checkout 1 hspice 
  lic: License/Maintenance for hspice will expire on 31-dec-2019/2019.12 
  lic: NODE LOCKED license on hostid "70c94e3215e4 0c9d922ee649 00ffaabbccdd 005
 056c00001 005056c0000
  lic:   
 Init: read install configuration file: d:\synopsys\Hspice_G-2012.06-SP1\meta.cfg
1****** HSPICE -- G-2012.06-SP1 32-BIT (Aug 27 2012) win32 ******               
 ******  
 *sample netlist for gsmc

  ******  mos   model parameters tnom=  25.000 temp=  25.000 *****
 ***************************************************************************
 *** common model parameters  model name:   0:nfet     model type:nmos   ***
 ***************************************************************************
     names  values   units     names  values   units     names  values   units
     -----  ------   -----     -----  ------   -----     -----  ------   -----

   1*** geometry parameters ***
       ld=   0.    meters      lmlt=   1.00                wd=   0.    meters 
     wmlt=   1.00                xl=   0.    meters        xw=   0.    meters 
     lref=   0.    meters      wref=   0.    meters      lref=   0.    meters 
     wref=   0.    meters     xlref=   0.    meters     xwref=   0.    meters 
     lmin=   0.    meters      wmin=   0.    meters      lmax=   0.    meters 
     wmax=   0.    meters 

   2*** threshold voltage parameters ***
      vto= 400.00m volts        nss=   0.    1/cm**2      tpg=   1.00         
      phi= 816.47m volts      gamma=   1.06  v**0.5      bulk=  gnd           
    ngate=   0.    cm**3       nsub= 1.0e+17 1/cm**3   delvto=   0.    volts  

   3*** gate overlap capacitance parameters ***
     cgbo=   0.    f/meter     cgdo=   0.    f/meter     cgso=   0.    f/meter
     meto=   0.    meters 

   4*** gate capacitance parameters ***
    capop=   2.00               cf1=   0.    volts        cf2= 100.00m volts  
      cf3=   1.00  volts        cf4=  50.00               cf5= 666.67m        
      cf6= 500.00               xqc= 500.00m              tox=  20.00n meters 
      cox=   1.73m f/m**2 

   5*** diffusion parasitic parameters ***
      acm=   0.                  is=  10.00f amps          js=   0.    a/m**2 
      jsw=   0.    amp/m        nds=   1.00               cbd=   0.    farad  
      cbs=   0.    farad         cj=   1.02m f/m**2      cjsw=   0.    f/m    
   cjgate=   0.    f/m           mj= 500.00m             mjsw= 330.00m        
       pb= 800.00m volts        php= 800.00m volts         tt=   0.    secs   
     hdif=   0.    meters      ldif=   0.    meters        rd=   0.    ohms   
       rs=   0.    ohms         rsh=   0.    ohms/sq       fc=   0.           
    alpha=   0.                 vcr=   0.    volts      iirat=   0.           
      rdc=   0.    ohms         rsc=   0.    ohms           n=   1.00         
     vnds=  -1.00  volts  

   6*** temperature effect parameters ***
     tlev=   0.               tlevc=   0.                  eg=   1.11  ev     
     gap1= 702.00u ev/deg      gap2=   1.11k deg          xti=   0.           
      bex=  -1.50               tcv=   0.    v/deg k      trd=   0.    /deg   
      trs=   0.    /deg         cta=   0.    /deg         ctp=   0.    /deg   

   7*** noise parameters ***
       kf=   0.                  af=   1.00              nlev=   2.00         
   gdsnoi=   1.00         

   ***  level  1  model parameters  ***

   lambda=   0.    /v            kp=   8.64u a/v**2 
  

 **warning** the following singular supplies were terminated to 1 meg resistor 
   supply       node1            node2
  vdd                     0:vdd              defined in subckt 0                     0:0                defined in subckt 0               
      
 **info** set option symb=1 internally to help for convergence.
 *****************************************************************
 ******  option summary
 ******
 runlvl  = 3         bypass  = 2         
 ******  
 *sample netlist for gsmc

  ******  dc transfer curves tnom=  25.000 temp=  25.000 *****

   *** source        0:vgs =    0.            ***

x

        volt    current      current      current      current    
                  mnmos1       mnmos2       mnmos3       mnmos4   
   -1.00000    -801.6450    -801.6450    -801.6450    -801.6450   
   -0.90000     -16.3525     -16.3525     -16.3525     -16.3525   
   -0.80000      -0.3336      -0.3336      -0.3336      -0.3336   
   -0.70000    -6.807e-03   -6.809e-03   -6.811e-03   -6.813e-03  
   -0.60000    -1.401e-04   -1.414e-04   -1.427e-04   -1.440e-04  
   -0.50000    -3.495e-06   -4.159e-06   -4.822e-06   -5.486e-06  
   -0.40000    -2.934e-07   -5.291e-07   -7.648e-07   -1.000e-06  
   -0.30000    -2.559e-08   -5.001e-08   -7.442e-08   -9.884e-08  
   -0.20000    -2.442e-11   -2.442e-11   -2.442e-11   -2.442e-11  
   -0.10000    -6.802e-13   -6.802e-13   -6.802e-13   -6.802e-13  
    0.            0.           0.           0.           0.       
    0.10000     2.010e-13    2.010e-13    2.010e-13    2.010e-13  
    0.20000     4.020e-13    4.020e-13    4.020e-13    4.020e-13  
    0.30000     6.030e-13    6.030e-13    6.030e-13    6.030e-13  
    0.40000     8.040e-13    8.040e-13    8.040e-13    8.040e-13  
    0.50000     1.005e-12    1.005e-12    1.005e-12    1.005e-12  
    0.60000     1.206e-12    1.206e-12    1.206e-12    1.206e-12  
    0.70000     1.407e-12    1.407e-12    1.407e-12    1.407e-12  
    0.80000     1.608e-12    1.608e-12    1.608e-12    1.608e-12  
    0.90000     1.809e-12    1.809e-12    1.809e-12    1.809e-12  
    1.00000     2.010e-12    2.010e-12    2.010e-12    2.010e-12  
    1.10000     2.211e-12    2.211e-12    2.211e-12    2.211e-12  
    1.20000     2.412e-12    2.412e-12    2.412e-12    2.412e-12  
    1.30000     2.613e-12    2.613e-12    2.613e-12    2.613e-12  
    1.40000     2.814e-12    2.814e-12    2.814e-12    2.814e-12  
    1.50000     3.015e-12    3.015e-12    3.015e-12    3.015e-12  
    1.60000     3.216e-12    3.216e-12    3.216e-12    3.216e-12  
    1.70000     3.417e-12    3.417e-12    3.417e-12    3.417e-12  
    1.80000     3.618e-12    3.618e-12    3.618e-12    3.618e-12  
    1.90000     3.819e-12    3.819e-12    3.819e-12    3.819e-12  
    2.00000     4.020e-12    4.020e-12    4.020e-12    4.020e-12  
    2.10000     4.221e-12    4.221e-12    4.221e-12    4.221e-12  
    2.20000     4.422e-12    4.422e-12    4.422e-12    4.422e-12  
    2.30000     4.623e-12    4.623e-12    4.623e-12    4.623e-12  
    2.40000     4.824e-12    4.824e-12    4.824e-12    4.824e-12  
    2.50000     5.025e-12    5.025e-12    5.025e-12    5.025e-12  
    2.60000     5.226e-12    5.226e-12    5.226e-12    5.226e-12  
    2.70000     5.427e-12    5.427e-12    5.427e-12    5.427e-12  
    2.80000     5.628e-12    5.628e-12    5.628e-12    5.628e-12  
    2.90000     5.829e-12    5.829e-12    5.829e-12    5.829e-12  
    3.00000     6.030e-12    6.030e-12    6.030e-12    6.030e-12  
    3.10000     6.231e-12    6.231e-12    6.231e-12    6.231e-12  
    3.20000     6.432e-12    6.432e-12    6.432e-12    6.432e-12  
    3.30000     6.633e-12    6.633e-12    6.633e-12    6.633e-12  
    3.40000     6.834e-12    6.834e-12    6.834e-12    6.834e-12  
    3.50000     7.035e-12    7.035e-12    7.035e-12    7.035e-12  
    3.60000     7.236e-12    7.236e-12    7.236e-12    7.236e-12  
    3.70000     7.437e-12    7.437e-12    7.437e-12    7.437e-12  
    3.80000     7.638e-12    7.638e-12    7.638e-12    7.638e-12  
    3.90000     7.839e-12    7.839e-12    7.839e-12    7.839e-12  
    4.00000     8.040e-12    8.040e-12    8.040e-12    8.040e-12  
    4.10000     8.241e-12    8.241e-12    8.241e-12    8.241e-12  
    4.20000     8.442e-12    8.442e-12    8.442e-12    8.442e-12  
    4.30000     8.643e-12    8.643e-12    8.643e-12    8.643e-12  
    4.40000     8.844e-12    8.844e-12    8.844e-12    8.844e-12  
    4.50000     9.045e-12    9.045e-12    9.045e-12    9.045e-12  
    4.60000     9.246e-12    9.246e-12    9.246e-12    9.246e-12  
    4.70000     9.447e-12    9.447e-12    9.447e-12    9.447e-12  
    4.80000     9.648e-12    9.648e-12    9.648e-12    9.648e-12  
    4.90000     9.849e-12    9.849e-12    9.849e-12    9.849e-12  
    5.00000     1.005e-11    1.005e-11    1.005e-11    1.005e-11  
    5.10000     1.025e-11    1.025e-11    1.025e-11    1.025e-11  
    5.20000     1.045e-11    1.045e-11    1.045e-11    1.045e-11  
    5.30000     1.065e-11    1.065e-11    1.065e-11    1.065e-11  
    5.40000     1.085e-11    1.085e-11    1.085e-11    1.085e-11  
    5.50000     1.105e-11    1.105e-11    1.105e-11    1.105e-11  
    5.60000     1.126e-11    1.126e-11    1.126e-11    1.126e-11  
    5.70000     1.146e-11    1.146e-11    1.146e-11    1.146e-11  
    5.80000     1.166e-11    1.166e-11    1.166e-11    1.166e-11  
    5.90000     1.186e-11    1.186e-11    1.186e-11    1.186e-11  
    6.00000     1.206e-11    1.206e-11    1.206e-11    1.206e-11  
    6.10000     1.226e-11    1.226e-11    1.226e-11    1.226e-11  
    6.20000     1.246e-11    1.246e-11    1.246e-11    1.246e-11  
    6.30000     1.266e-11    1.266e-11    1.266e-11    1.266e-11  
    6.40000     1.286e-11    1.286e-11    1.286e-11    1.286e-11  
    6.50000     1.307e-11    1.307e-11    1.307e-11    1.307e-11  
    6.60000     1.327e-11    1.327e-11    1.327e-11    1.327e-11  
    6.70000     1.347e-11    1.347e-11    1.347e-11    1.347e-11  
    6.80000     1.367e-11    1.367e-11    1.367e-11    1.367e-11  
    6.90000     1.387e-11    1.387e-11    1.387e-11    1.387e-11  
    7.00000     1.407e-11    1.407e-11    1.407e-11    1.407e-11  
    7.10000     1.427e-11    1.427e-11    1.427e-11    1.427e-11  
    7.20000     1.447e-11    1.447e-11    1.447e-11    1.447e-11  
    7.30000     1.467e-11    1.467e-11    1.467e-11    1.467e-11  
    7.40000     1.487e-11    1.487e-11    1.487e-11    1.487e-11  
    7.50000     1.507e-11    1.507e-11    1.507e-11    1.507e-11  
    7.60000     1.528e-11    1.528e-11    1.528e-11    1.528e-11  
    7.70000     1.548e-11    1.548e-11    1.548e-11    1.548e-11  
    7.80000     1.568e-11    1.568e-11    1.568e-11    1.568e-11  
    7.90000     1.588e-11    1.588e-11    1.588e-11    1.588e-11  
    8.00000     1.608e-11    1.608e-11    1.608e-11    1.608e-11  
    8.10000     1.628e-11    1.628e-11    1.628e-11    1.628e-11  
    8.20000     1.648e-11    1.648e-11    1.648e-11    1.648e-11  
    8.30000     1.668e-11    1.668e-11    1.668e-11    1.668e-11  
    8.40000     1.688e-11    1.688e-11    1.688e-11    1.688e-11  
    8.50000     1.708e-11    1.708e-11    1.708e-11    1.708e-11  
    8.60000     1.729e-11    1.729e-11    1.729e-11    1.729e-11  
    8.70000     1.749e-11    1.749e-11    1.749e-11    1.749e-11  
    8.80000     1.769e-11    1.769e-11    1.769e-11    1.769e-11  
    8.90000     1.789e-11    1.789e-11    1.789e-11    1.789e-11  
    9.00000     1.809e-11    1.809e-11    1.809e-11    1.809e-11  
    9.10000     1.829e-11    1.829e-11    1.829e-11    1.829e-11  
    9.20000     1.849e-11    1.849e-11    1.849e-11    1.849e-11  
    9.30000     1.869e-11    1.869e-11    1.869e-11    1.869e-11  
    9.40000     1.889e-11    1.889e-11    1.889e-11    1.889e-11  
    9.50000     1.910e-11    1.910e-11    1.910e-11    1.910e-11  
    9.60000     1.930e-11    1.930e-11    1.930e-11    1.930e-11  
    9.70000     1.950e-11    1.950e-11    1.950e-11    1.950e-11  
    9.80000     1.970e-11    1.970e-11    1.970e-11    1.970e-11  
    9.90000     1.990e-11    1.990e-11    1.990e-11    1.990e-11  
   10.00000     2.010e-11    2.010e-11    2.010e-11    2.010e-11  
y
-----------------------------------------------
 ******  
 *sample netlist for gsmc

  ******  dc transfer curves tnom=  25.000 temp=  25.000 *****

   *** source        0:vgs =    2.0000        ***

x

        volt    current      current      current      current    
                  mnmos1       mnmos2       mnmos3       mnmos4   
   -1.00000    -801.6450    -801.6451    -801.6451    -801.6451   
   -0.90000     -16.3525     -16.3525     -16.3525     -16.3526   
   -0.80000      -0.3336      -0.3336      -0.3336      -0.3336   
   -0.70000    -6.819e-03   -6.833e-03   -6.847e-03   -6.861e-03  
   -0.60000    -1.505e-04   -1.621e-04   -1.738e-04   -1.855e-04  
   -0.50000    -1.208e-05   -2.134e-05   -3.059e-05   -3.984e-05  
   -0.40000    -7.086e-06   -1.411e-05   -2.114e-05   -2.817e-05  
   -0.30000    -4.991e-06   -9.981e-06   -1.497e-05   -1.996e-05  
   -0.20000    -3.139e-06   -6.279e-06   -9.418e-06   -1.256e-05  
   -0.10000    -1.476e-06   -2.952e-06   -4.428e-06   -5.904e-06  
    0.            0.           0.           0.           0.       
    0.10000     1.339e-06    2.678e-06    4.018e-06    5.357e-06  
    0.20000     2.592e-06    5.184e-06    7.776e-06    1.037e-05  
    0.30000     3.758e-06    7.517e-06    1.128e-05    1.503e-05  
    0.40000     4.838e-06    9.677e-06    1.452e-05    1.935e-05  
    0.50000     5.832e-06    1.166e-05    1.750e-05    2.333e-05  
    0.60000     6.739e-06    1.348e-05    2.022e-05    2.696e-05  
    0.70000     7.560e-06    1.512e-05    2.268e-05    3.024e-05  
    0.80000     8.294e-06    1.659e-05    2.488e-05    3.318e-05  
    0.90000     8.942e-06    1.788e-05    2.683e-05    3.577e-05  
    1.00000     9.504e-06    1.901e-05    2.851e-05    3.802e-05  
    1.10000     9.979e-06    1.996e-05    2.994e-05    3.992e-05  
    1.20000     1.037e-05    2.074e-05    3.110e-05    4.147e-05  
    1.30000     1.067e-05    2.134e-05    3.201e-05    4.268e-05  
    1.40000     1.089e-05    2.177e-05    3.266e-05    4.355e-05  
    1.50000     1.102e-05    2.203e-05    3.305e-05    4.406e-05  
    1.60000     1.106e-05    2.212e-05    3.318e-05    4.424e-05  
    1.70000     1.106e-05    2.212e-05    3.318e-05    4.424e-05  
    1.80000     1.106e-05    2.212e-05    3.318e-05    4.424e-05  
    1.90000     1.106e-05    2.212e-05    3.318e-05    4.424e-05  
    2.00000     1.106e-05    2.212e-05    3.318e-05    4.424e-05  
    2.10000     1.106e-05    2.212e-05    3.318e-05    4.424e-05  
    2.20000     1.106e-05    2.212e-05    3.318e-05    4.424e-05  
    2.30000     1.106e-05    2.212e-05    3.318e-05    4.424e-05  
    2.40000     1.106e-05    2.212e-05    3.318e-05    4.424e-05  
    2.50000     1.106e-05    2.212e-05    3.318e-05    4.424e-05  
    2.60000     1.106e-05    2.212e-05    3.318e-05    4.424e-05  
    2.70000     1.106e-05    2.212e-05    3.318e-05    4.424e-05  
    2.80000     1.106e-05    2.212e-05    3.318e-05    4.424e-05  
    2.90000     1.106e-05    2.212e-05    3.318e-05    4.424e-05  
    3.00000     1.106e-05    2.212e-05    3.318e-05    4.424e-05  
    3.10000     1.106e-05    2.212e-05    3.318e-05    4.424e-05  
    3.20000     1.106e-05    2.212e-05    3.318e-05    4.424e-05  
    3.30000     1.106e-05    2.212e-05    3.318e-05    4.424e-05  
    3.40000     1.106e-05    2.212e-05    3.318e-05    4.424e-05  
    3.50000     1.106e-05    2.212e-05    3.318e-05    4.424e-05  
    3.60000     1.106e-05    2.212e-05    3.318e-05    4.424e-05  
    3.70000     1.106e-05    2.212e-05    3.318e-05    4.424e-05  
    3.80000     1.106e-05    2.212e-05    3.318e-05    4.424e-05  
    3.90000     1.106e-05    2.212e-05    3.318e-05    4.424e-05  
    4.00000     1.106e-05    2.212e-05    3.318e-05    4.424e-05  
    4.10000     1.106e-05    2.212e-05    3.318e-05    4.424e-05  
    4.20000     1.106e-05    2.212e-05    3.318e-05    4.424e-05  
    4.30000     1.106e-05    2.212e-05    3.318e-05    4.424e-05  
    4.40000     1.106e-05    2.212e-05    3.318e-05    4.424e-05  
    4.50000     1.106e-05    2.212e-05    3.318e-05    4.424e-05  
    4.60000     1.106e-05    2.212e-05    3.318e-05    4.424e-05  
    4.70000     1.106e-05    2.212e-05    3.318e-05    4.424e-05  
    4.80000     1.106e-05    2.212e-05    3.318e-05    4.424e-05  
    4.90000     1.106e-05    2.212e-05    3.318e-05    4.424e-05  
    5.00000     1.106e-05    2.212e-05    3.318e-05    4.424e-05  
    5.10000     1.106e-05    2.212e-05    3.318e-05    4.424e-05  
    5.20000     1.106e-05    2.212e-05    3.318e-05    4.424e-05  
    5.30000     1.106e-05    2.212e-05    3.318e-05    4.424e-05  
    5.40000     1.106e-05    2.212e-05    3.318e-05    4.424e-05  
    5.50000     1.106e-05    2.212e-05    3.318e-05    4.424e-05  
    5.60000     1.106e-05    2.212e-05    3.318e-05    4.424e-05  
    5.70000     1.106e-05    2.212e-05    3.318e-05    4.424e-05  
    5.80000     1.106e-05    2.212e-05    3.318e-05    4.424e-05  
    5.90000     1.106e-05    2.212e-05    3.318e-05    4.424e-05  
    6.00000     1.106e-05    2.212e-05    3.318e-05    4.424e-05  
    6.10000     1.106e-05    2.212e-05    3.318e-05    4.424e-05  
    6.20000     1.106e-05    2.212e-05    3.318e-05    4.424e-05  
    6.30000     1.106e-05    2.212e-05    3.318e-05    4.424e-05  
    6.40000     1.106e-05    2.212e-05    3.318e-05    4.424e-05  
    6.50000     1.106e-05    2.212e-05    3.318e-05    4.424e-05  
    6.60000     1.106e-05    2.212e-05    3.318e-05    4.424e-05  
    6.70000     1.106e-05    2.212e-05    3.318e-05    4.424e-05  
    6.80000     1.106e-05    2.212e-05    3.318e-05    4.424e-05  
    6.90000     1.106e-05    2.212e-05    3.318e-05    4.424e-05  
    7.00000     1.106e-05    2.212e-05    3.318e-05    4.424e-05  
    7.10000     1.106e-05    2.212e-05    3.318e-05    4.424e-05  
    7.20000     1.106e-05    2.212e-05    3.318e-05    4.424e-05  
    7.30000     1.106e-05    2.212e-05    3.318e-05    4.424e-05  
    7.40000     1.106e-05    2.212e-05    3.318e-05    4.424e-05  
    7.50000     1.106e-05    2.212e-05    3.318e-05    4.424e-05  
    7.60000     1.106e-05    2.212e-05    3.318e-05    4.424e-05  
    7.70000     1.106e-05    2.212e-05    3.318e-05    4.424e-05  
    7.80000     1.106e-05    2.212e-05    3.318e-05    4.424e-05  
    7.90000     1.106e-05    2.212e-05    3.318e-05    4.424e-05  
    8.00000     1.106e-05    2.212e-05    3.318e-05    4.424e-05  
    8.10000     1.106e-05    2.212e-05    3.318e-05    4.424e-05  
    8.20000     1.106e-05    2.212e-05    3.318e-05    4.424e-05  
    8.30000     1.106e-05    2.212e-05    3.318e-05    4.424e-05  
    8.40000     1.106e-05    2.212e-05    3.318e-05    4.424e-05  
    8.50000     1.106e-05    2.212e-05    3.318e-05    4.424e-05  
    8.60000     1.106e-05    2.212e-05    3.318e-05    4.424e-05  
    8.70000     1.106e-05    2.212e-05    3.318e-05    4.424e-05  
    8.80000     1.106e-05    2.212e-05    3.318e-05    4.424e-05  
    8.90000     1.106e-05    2.212e-05    3.318e-05    4.424e-05  
    9.00000     1.106e-05    2.212e-05    3.318e-05    4.424e-05  
    9.10000     1.106e-05    2.212e-05    3.318e-05    4.424e-05  
    9.20000     1.106e-05    2.212e-05    3.318e-05    4.424e-05  
    9.30000     1.106e-05    2.212e-05    3.318e-05    4.424e-05  
    9.40000     1.106e-05    2.212e-05    3.318e-05    4.424e-05  
    9.50000     1.106e-05    2.212e-05    3.318e-05    4.424e-05  
